
T2A68 000:005 SEGGER J-Link V6.40 Log File (0000ms, 0005ms total)
T2A68 000:005 DLL Compiled: Oct 26 2018 15:06:02 (0000ms, 0005ms total)
T2A68 000:005 Logging started @ 2019-06-04 19:05 (0000ms, 0005ms total)
T2A68 000:005 JLINK_SetWarnOutHandler(...) (0000ms, 0005ms total)
T2A68 000:005 JLINK_OpenEx(...)
Firmware: J-Link V9 compiled Oct 25 2018 11:46:07
Hardware: V9.40
S/N: 59400325
Feature(s): RDI, GDB, FlashDL, FlashBP, JFlash
TELNET listener socket opened on port 19021WEBSRV 
Starting webserver (0091ms, 0096ms total)
T2A68 000:005 WEBSRV Webserver running on local port 19080 (0091ms, 0096ms total)
T2A68 000:005   returns O.K. (0091ms, 0096ms total)
T2A68 000:096 JLINK_GetEmuCaps()  returns 0xB9FF7BBF (0000ms, 0096ms total)
T2A68 000:096 JLINK_TIF_GetAvailable(...) (0004ms, 0100ms total)
T2A68 000:100 JLINK_SetErrorOutHandler(...) (0000ms, 0100ms total)
T2A68 000:100 JLINK_ExecCommand("ProjectFile = "C:\Keil_v5\Project\Juno_Light_Central\pca10040\s132\arm5_no_packs\JLinkSettings.ini"", ...). Ref file found at: C:\Keil_v5\ARM\Segger\JLinkDevices.ref (0001ms, 0101ms total)
T2A68 000:100 XML referenced by ref file: C:\Program Files (x86)\SEGGER\JLink_V640\JLinkDevices.xml (0001ms, 0101ms total)
T2A68 000:100 C:\Program Files (x86)\SEGGER\JLink_V640\JLinkDevices.xml evaluated successfully.  returns 0x00 (0071ms, 0171ms total)
T2A68 000:171 JLINK_ExecCommand("Device = nRF52832_xxAA", ...). Device "NRF52832_XXAA" selected.  returns 0x00 (0001ms, 0172ms total)
T2A68 000:172 JLINK_ExecCommand("DisableConnectionTimeout", ...).   returns 0x01 (0000ms, 0172ms total)
T2A68 000:172 JLINK_GetHardwareVersion()  returns 0x16F30 (0000ms, 0172ms total)
T2A68 000:172 JLINK_GetDLLVersion()  returns 64000 (0000ms, 0172ms total)
T2A68 000:172 JLINK_GetFirmwareString(...) (0000ms, 0172ms total)
T2A68 000:172 JLINK_GetDLLVersion()  returns 64000 (0000ms, 0172ms total)
T2A68 000:172 JLINK_GetCompileDateTime() (0000ms, 0172ms total)
T2A68 000:172 JLINK_GetFirmwareString(...) (0000ms, 0172ms total)
T2A68 000:172 JLINK_GetHardwareVersion()  returns 0x16F30 (0000ms, 0172ms total)
T2A68 000:173 JLINK_TIF_Select(JLINKARM_TIF_SWD)  returns 0x00 (0016ms, 0188ms total)
T2A68 000:189 JLINK_SetSpeed(5000) (0003ms, 0191ms total)
T2A68 000:192 JLINK_GetId() >0x10B TIF>Found SW-DP with ID 0x2BA01477 >0x0D TIF> >0x28 TIF> >0x0D TIF> >0x28 TIF> >0x10B TIF>Found SW-DP with ID 0x2BA01477 >0x0D TIF> >0x28 TIF> >0x0D TIF> >0x28 TIF> >0x0D TIF> >0x28 TIF> >0x0D TIF> >0x28 TIF> >0x35 TIF> >0x0D TIF> >0x28 TIF>Scanning AP map to find all available APs >0x0D TIF> >0x28 TIF> >0x35 TIF> >0x35 TIF> >0x0D TIF> >0x28 TIF> >0x35 TIF> >0x35 TIF> >0x0D TIF> >0x28 TIF> >0x35 TIF> >0x35 TIF>AP[2]: Stopped AP scan as end of AP map has been reached
AP[0]: AHB-AP (IDR: 0x24770011)AP[1]: JTAG-AP (IDR: 0x02880000)Iterating through AP map to find AHB-AP to use >0x42 TIF> >0x28 TIF> >0x0D TIF> >0x28 TIF> >0x35 TIF> >0x35 TIF> >0x42 TIF> >0x28 TIF> >0x0D TIF> >0x28 TIF> >0x0D TIF> >0x28 TIF> >0x35 TIF> >0x35 TIF>AP[0]: Core foundAP[0]: AHB-AP ROM base: 0xE00FF000 >0x0D TIF> >0x28 TIF> >0x0D TIF> >0x28 TIF> >0x0D TIF> >0x28 TIF> >0x35 TIF> >0x35 TIF>CPUID register: 0x410FC241. Implementer code: 0x41 (ARM)Found Cortex-M4 r0p1, Little endian.
 -- Max. mem block: 0x00010D70 -- CPU_ReadMem(4 bytes @ 0xE000EDF0) -- CPU_WriteMem(4 bytes @ 0xE000EDF0) -- CPU_ReadMem(4 bytes @ 0xE0002000)FPUnit: 6 code (BP) slots and 2 literal slots -- CPU_ReadMem(4 bytes @ 0xE000EDFC) -- CPU_WriteMem(4 bytes @ 0xE000EDFC) -- CPU_ReadMem(4 bytes @ 0xE0001000) -- CPU_WriteMem(4 bytes @ 0xE0001000) -- CPU_ReadMem(4 bytes @ 0xE000ED88) -- CPU_WriteMem(4 bytes @ 0xE000ED88) -- CPU_ReadMem(4 bytes @ 0xE000ED88) -- CPU_WriteMem(4 bytes @ 0xE000ED88)CoreSight components:
ROMTbl[0] @ E00FF000 -- CPU_ReadMem(16 bytes @ 0xE00FF000) -- CPU_ReadMem(16 bytes @ 0xE000EFF0) -- CPU_ReadMem(16 bytes @ 0xE000EFE0)ROMTbl[0][0]: E000E000, CID: B105E00D, PID: 000BB00C SCS-M7 -- CPU_ReadMem(16 bytes @ 0xE0001FF0) -- CPU_ReadMem(16 bytes @ 0xE0001FE0)ROMTbl[0][1]: E0001000, CID: B105E00D, PID: 003BB002 DWT -- CPU_ReadMem(16 bytes @ 0xE0002FF0) -- CPU_ReadMem(16 bytes @ 0xE0002FE0)ROMTbl[0][2]: E0002000, CID: B105E00D, PID: 002BB003 FPB -- CPU_ReadMem(16 bytes @ 0xE0000FF0)
 -- CPU_ReadMem(16 bytes @ 0xE0000FE0)ROMTbl[0][3]: E0000000, CID: B105E00D, PID: 003BB001 ITM -- CPU_ReadMem(16 bytes @ 0xE00FF010) -- CPU_ReadMem(16 bytes @ 0xE0040FF0) -- CPU_ReadMem(16 bytes @ 0xE0040FE0)ROMTbl[0][4]: E0040000, CID: B105900D, PID: 000BB9A1 TPIU -- CPU_ReadMem(16 bytes @ 0xE0041FF0) -- CPU_ReadMem(16 bytes @ 0xE0041FE0)ROMTbl[0][5]: E0041000, CID: B105900D, PID: 000BB925 ETM >0x35 TIF>  returns 0x2BA01477 (0499ms, 0690ms total)
T2A68 000:691 JLINK_GetDLLVersion()  returns 64000 (0000ms, 0690ms total)
T2A68 000:691 JLINK_CORE_GetFound()  returns 0xE0000FF (0000ms, 0690ms total)
T2A68 000:691 JLINK_GetDebugInfo(0x100 = JLINKARM_ROM_TABLE_ADDR_INDEX) -- Value=0xE00FF000  returns 0x00 (0000ms, 0690ms total)
T2A68 000:691 JLINK_GetDebugInfo(0x100 = JLINKARM_ROM_TABLE_ADDR_INDEX) -- Value=0xE00FF000  returns 0x00 (0000ms, 0690ms total)
T2A68 000:691 JLINK_GetDebugInfo(0x101 = JLINKARM_DEBUG_INFO_ETM_ADDR_INDEX) -- Value=0xE0041000  returns 0x00 (0000ms, 0690ms total)
T2A68 000:691 JLINK_ReadMemEx(0xE0041FD0, 0x0020 Bytes, ..., Flags = 0x02000004) -- CPU_ReadMem(32 bytes @ 0xE0041FD0) - Data: 04 00 00 00 00 00 00 00 00 00 00 00 00 00 00 00 ...  returns 0x20 (0004ms, 0694ms total)
T2A68 000:695 JLINK_GetDebugInfo(0x102 = JLINKARM_DEBUG_INFO_MTB_ADDR_INDEX) -- Value=0x00000000  returns 0x00 (0000ms, 0694ms total)
T2A68 000:695 JLINK_GetDebugInfo(0x103 = JLINKARM_DEBUG_INFO_TPIU_ADDR_INDEX) -- Value=0xE0040000  returns 0x00 (0000ms, 0694ms total)
T2A68 000:695 JLINK_GetDebugInfo(0x104 = JLINKARM_DEBUG_INFO_ITM_ADDR_INDEX) -- Value=0xE0000000  returns 0x00 (0000ms, 0694ms total)
T2A68 000:695 JLINK_GetDebugInfo(0x105 = JLINKARM_DEBUG_INFO_DWT_ADDR_INDEX) -- Value=0xE0001000  returns 0x00 (0000ms, 0694ms total)
T2A68 000:695 JLINK_GetDebugInfo(0x106 = JLINKARM_DEBUG_INFO_FPB_ADDR_INDEX) -- Value=0xE0002000  returns 0x00 (0000ms, 0694ms total)
T2A68 000:695 JLINK_GetDebugInfo(0x107 = JLINKARM_DEBUG_INFO_NVIC_ADDR_INDEX) -- Value=0xE000E000  returns 0x00 (0000ms, 0694ms total)
T2A68 000:695 JLINK_GetDebugInfo(0x10C = JLINKARM_DEBUG_INFO_DBG_ADDR_INDEX) -- Value=0xE000EDF0  returns 0x00 (0000ms, 0694ms total)
T2A68 000:695 JLINK_ReadMemU32(0xE000EF40, 0x0001 Items, ...) -- CPU_ReadMem(4 bytes @ 0xE000EF40) - Data: 21 00 11 10  returns 1 (0004ms, 0698ms total)
T2A68 000:699 JLINK_ReadMemU32(0xE000EF44, 0x0001 Items, ...) -- CPU_ReadMem(4 bytes @ 0xE000EF44) - Data: 11 00 00 11  returns 1 (0007ms, 0705ms total)
T2A68 000:706 JLINK_ReadMemU32(0xE000ED00, 0x0001 Items, ...) -- CPU_ReadMem(4 bytes @ 0xE000ED00) - Data: 41 C2 0F 41  returns 1 (0004ms, 0709ms total)
T2A68 000:710 JLINK_GetDebugInfo(0x10F = JLINKARM_DEBUG_INFO_HAS_CORTEX_M_SECURITY_EXT_INDEX) -- Value=0x00000000  returns 0x00 (0000ms, 0709ms total)
T2A68 000:710 JLINK_SetResetType(JLINKARM_CM3_RESET_TYPE_NORMAL)  returns JLINKARM_CM3_RESET_TYPE_NORMAL (0000ms, 0709ms total)
T2A68 000:710 JLINK_Reset() -- CPU is running -- CPU_WriteMem(4 bytes @ 0xE000EDF0) -- CPU is running -- CPU_WriteMem(4 bytes @ 0xE000EDFC)Reset: Halt core after reset via DEMCR.VC_CORERESET. >0x35 TIF>Reset: Reset device via AIRCR.SYSRESETREQ. -- CPU is running -- CPU_WriteMem(4 bytes @ 0xE000ED0C) >0x0D TIF> >0x28 TIF> -- CPU_ReadMem(4 bytes @ 0xE000EDF0) -- CPU_ReadMem(4 bytes @ 0xE000EDF0) -- CPU is running -- CPU_WriteMem(4 bytes @ 0xE000EDF0) -- CPU is running -- CPU_WriteMem(4 bytes @ 0xE000EDFC)
 -- CPU_ReadMem(4 bytes @ 0xE000EDF0) -- CPU_WriteMem(4 bytes @ 0xE0002000) -- CPU_ReadMem(4 bytes @ 0xE000EDFC) -- CPU_ReadMem(4 bytes @ 0xE0001000) (0125ms, 0834ms total)
T2A68 000:835 JLINK_ReadReg(R15 (PC))  returns 0x00000A80 (0000ms, 0834ms total)
T2A68 000:835 JLINK_ReadReg(XPSR)  returns 0x01000000 (0000ms, 0834ms total)
T2A68 000:835 JLINK_Halt()  returns 0x00 (0000ms, 0834ms total)
T2A68 000:835 JLINK_ReadMemU32(0xE000EDF0, 0x0001 Items, ...) -- CPU_ReadMem(4 bytes @ 0xE000EDF0) - Data: 03 00 03 00  returns 1 (0005ms, 0839ms total)
T2A68 000:840 JLINK_WriteU32(0xE000EDF0, 0xA05F0003) -- CPU_WriteMem(4 bytes @ 0xE000EDF0)  returns 0 (0002ms, 0841ms total)
T2A68 000:842 JLINK_WriteU32(0xE000EDFC, 0x01000000) -- CPU_WriteMem(4 bytes @ 0xE000EDFC)  returns 0 (0004ms, 0845ms total)
T2A68 000:846 JLINK_GetHWStatus(...)  returns 0x00 (0005ms, 0850ms total)
T2A68 000:852 JLINK_GetNumBPUnits(Type = 0xFFFFFF00)  returns 0x06 (0000ms, 0850ms total)
T2A68 000:852 JLINK_GetNumBPUnits(Type = 0xF0)  returns 0x2000 (0000ms, 0850ms total)
T2A68 000:852 JLINK_GetNumWPUnits()  returns 0x04 (0000ms, 0850ms total)
T2A68 000:852 JLINK_GetSpeed()  returns 0xFA0 (0000ms, 0850ms total)
T2A68 000:852 JLINK_ReadMemU32(0xE000E004, 0x0001 Items, ...) -- CPU_ReadMem(4 bytes @ 0xE000E004) - Data: 01 00 00 00  returns 1 (0004ms, 0854ms total)
T2A68 000:856 JLINK_ReadMemU32(0xE000E004, 0x0001 Items, ...) -- CPU_ReadMem(4 bytes @ 0xE000E004) - Data: 01 00 00 00  returns 1 (0003ms, 0857ms total)
T2A68 000:859 JLINK_WriteMemEx(0xE0001000, 0x001C Bytes, ..., Flags = 0x02000004) - Data: 01 00 00 00 00 00 00 00 00 00 00 00 00 00 00 00 ... -- CPU_WriteMem(28 bytes @ 0xE0001000)  returns 0x1C (0005ms, 0862ms total)
T2A68 000:865 JLINK_ReadReg(R15 (PC))  returns 0x00000A80 (0000ms, 0862ms total)
T2A68 000:865 JLINK_ReadReg(XPSR)  returns 0x01000000 (0000ms, 0862ms total)
T2A68 001:020 JLINK_SetResetType(JLINKARM_CM3_RESET_TYPE_NORMAL)  returns JLINKARM_CM3_RESET_TYPE_NORMAL (0000ms, 0862ms total)
T2A68 001:020 JLINK_Reset() -- CPU_WriteMem(4 bytes @ 0xE000EDF0) -- CPU_WriteMem(4 bytes @ 0xE000EDFC)Reset: Halt core after reset via DEMCR.VC_CORERESET. >0x35 TIF>Reset: Reset device via AIRCR.SYSRESETREQ. -- CPU_WriteMem(4 bytes @ 0xE000ED0C) >0x0D TIF> >0x28 TIF> -- CPU_ReadMem(4 bytes @ 0xE000EDF0) -- CPU_ReadMem(4 bytes @ 0xE000EDF0) -- CPU_WriteMem(4 bytes @ 0xE000EDF0) -- CPU_WriteMem(4 bytes @ 0xE000EDFC) -- CPU_ReadMem(4 bytes @ 0xE000EDF0) -- CPU_WriteMem(4 bytes @ 0xE0002000)
 -- CPU_ReadMem(4 bytes @ 0xE000EDFC) -- CPU_ReadMem(4 bytes @ 0xE0001000) (0128ms, 0990ms total)
T2A68 001:153 JLINK_ReadReg(R15 (PC))  returns 0x00000A80 (0000ms, 0990ms total)
T2A68 001:153 JLINK_ReadReg(XPSR)  returns 0x01000000 (0000ms, 0990ms total)
T2A68 001:153 JLINK_ReadMemEx(0x00000A80, 0x003C Bytes, ..., Flags = 0x02000000) -- CPU_ReadMem(64 bytes @ 0x00000A80) -- Updating C cache (64 bytes @ 0x00000A80) -- Read from C cache (60 bytes @ 0x00000A80) - Data: 06 4B 18 47 06 4A 10 60 01 68 81 F3 08 88 40 68 ...  returns 0x3C (0004ms, 0994ms total)
T2A68 003:539 JLINK_ReadMemEx(0x0002E2F6, 0x0002 Bytes, ..., Flags = 0x02000000) -- CPU_ReadMem(64 bytes @ 0x0002E2C0) -- Updating C cache (64 bytes @ 0x0002E2C0) -- Read from C cache (2 bytes @ 0x0002E2F6) - Data: 6F 48  returns 0x02 (0005ms, 0999ms total)
T2A68 003:544 JLINK_ReadMemEx(0x0002E2F8, 0x003C Bytes, ..., Flags = 0x02000000) -- CPU_ReadMem(64 bytes @ 0x0002E300) -- Updating C cache (64 bytes @ 0x0002E300) -- Read from C cache (60 bytes @ 0x0002E2F8) - Data: F9 F7 FA F8 7B 48 00 78 01 28 02 D1 00 20 6D 49 ...  returns 0x3C (0003ms, 1002ms total)
T2A68 003:914 JLINK_ReadReg(R0)  returns 0x00000000 (0004ms, 1006ms total)
T2A68 003:918 JLINK_ReadReg(R1)  returns 0x00000000 (0000ms, 1006ms total)
T2A68 003:918 JLINK_ReadReg(R2)  returns 0x00000000 (0000ms, 1006ms total)
T2A68 003:918 JLINK_ReadReg(R3)  returns 0x00000000 (0000ms, 1006ms total)
T2A68 003:918 JLINK_ReadReg(R4)  returns 0x00000000 (0000ms, 1006ms total)
T2A68 003:918 JLINK_ReadReg(R5)  returns 0x00000000 (0000ms, 1006ms total)
T2A68 003:918 JLINK_ReadReg(R6)  returns 0x00000000 (0000ms, 1006ms total)
T2A68 003:918 JLINK_ReadReg(R7)  returns 0x00000000 (0000ms, 1006ms total)
T2A68 003:918 JLINK_ReadReg(R8)  returns 0x00000000 (0000ms, 1006ms total)
T2A68 003:918 JLINK_ReadReg(R9)  returns 0x00000000 (0000ms, 1006ms total)
T2A68 003:918 JLINK_ReadReg(R10)  returns 0x00000000 (0000ms, 1006ms total)
T2A68 003:918 JLINK_ReadReg(R11)  returns 0x00000000 (0000ms, 1006ms total)
T2A68 003:918 JLINK_ReadReg(R12)  returns 0x00000000 (0000ms, 1006ms total)
T2A68 003:918 JLINK_ReadReg(R13 (SP))  returns 0x20000400 (0000ms, 1006ms total)
T2A68 003:918 JLINK_ReadReg(R14)  returns 0xFFFFFFFF (0000ms, 1006ms total)
T2A68 003:918 JLINK_ReadReg(R15 (PC))  returns 0x00000A80 (0000ms, 1006ms total)
T2A68 003:918 JLINK_ReadReg(XPSR)  returns 0x01000000 (0000ms, 1006ms total)
T2A68 003:918 JLINK_ReadReg(MSP)  returns 0x20000400 (0000ms, 1006ms total)
T2A68 003:918 JLINK_ReadReg(PSP)  returns 0x00000000 (0000ms, 1006ms total)
T2A68 003:918 JLINK_ReadReg(CFBP)  returns 0x00000000 (0000ms, 1006ms total)
T2A68 003:918 JLINK_ReadReg(FPSCR)  returns 0x00000000 (0010ms, 1016ms total)
T2A68 003:928 JLINK_ReadReg(FPS0)  returns 0x00000000 (0000ms, 1016ms total)
T2A68 003:928 JLINK_ReadReg(FPS1)  returns 0x00000000 (0000ms, 1016ms total)
T2A68 003:928 JLINK_ReadReg(FPS2)  returns 0x00000000 (0000ms, 1016ms total)
T2A68 003:928 JLINK_ReadReg(FPS3)  returns 0x00000000 (0000ms, 1016ms total)
T2A68 003:928 JLINK_ReadReg(FPS4)  returns 0x00000000 (0000ms, 1016ms total)
T2A68 003:928 JLINK_ReadReg(FPS5)  returns 0x00000000 (0000ms, 1016ms total)
T2A68 003:928 JLINK_ReadReg(FPS6)  returns 0x00000000 (0000ms, 1016ms total)
T2A68 003:928 JLINK_ReadReg(FPS7)  returns 0x00000000 (0000ms, 1016ms total)
T2A68 003:928 JLINK_ReadReg(FPS8)  returns 0x00000000 (0000ms, 1016ms total)
T2A68 003:928 JLINK_ReadReg(FPS9)  returns 0x00000000 (0000ms, 1016ms total)
T2A68 003:928 JLINK_ReadReg(FPS10)  returns 0x00000000 (0000ms, 1016ms total)
T2A68 003:928 JLINK_ReadReg(FPS11)  returns 0x00000000 (0000ms, 1016ms total)
T2A68 003:928 JLINK_ReadReg(FPS12)  returns 0x00000000 (0000ms, 1016ms total)
T2A68 003:928 JLINK_ReadReg(FPS13)  returns 0x00000000 (0000ms, 1016ms total)
T2A68 003:928 JLINK_ReadReg(FPS14)  returns 0x00000000 (0000ms, 1016ms total)
T2A68 003:928 JLINK_ReadReg(FPS15)  returns 0x00000000 (0000ms, 1016ms total)
T2A68 003:928 JLINK_ReadReg(FPS16)  returns 0x00000000 (0000ms, 1016ms total)
T2A68 003:928 JLINK_ReadReg(FPS17)  returns 0x00000000 (0000ms, 1016ms total)
T2A68 003:928 JLINK_ReadReg(FPS18)  returns 0x00000000 (0000ms, 1016ms total)
T2A68 003:928 JLINK_ReadReg(FPS19)  returns 0x00000000 (0000ms, 1016ms total)
T2A68 003:928 JLINK_ReadReg(FPS20)  returns 0x00000000 (0000ms, 1016ms total)
T2A68 003:928 JLINK_ReadReg(FPS21)  returns 0x00000000 (0000ms, 1016ms total)
T2A68 003:928 JLINK_ReadReg(FPS22)  returns 0x00000000 (0000ms, 1016ms total)
T2A68 003:928 JLINK_ReadReg(FPS23)  returns 0x00000000 (0000ms, 1016ms total)
T2A68 003:928 JLINK_ReadReg(FPS24)  returns 0x00000000 (0000ms, 1016ms total)
T2A68 003:928 JLINK_ReadReg(FPS25)  returns 0x00000000 (0000ms, 1016ms total)
T2A68 003:928 JLINK_ReadReg(FPS26)  returns 0x00000000 (0000ms, 1016ms total)
T2A68 003:928 JLINK_ReadReg(FPS27)  returns 0x00000000 (0000ms, 1016ms total)
T2A68 003:928 JLINK_ReadReg(FPS28)  returns 0x00000000 (0000ms, 1016ms total)
T2A68 003:928 JLINK_ReadReg(FPS29)  returns 0x00000000 (0000ms, 1016ms total)
T2A68 003:928 JLINK_ReadReg(FPS30)  returns 0x00000000 (0000ms, 1016ms total)
T2A68 003:928 JLINK_ReadReg(FPS31)  returns 0x00000000 (0000ms, 1016ms total)
T2A68 003:947 JLINK_ReadMemEx(0x20002B8C, 0x0002 Bytes, ..., Flags = 0x02000000) -- CPU_ReadMem(64 bytes @ 0x20002B80) -- Updating C cache (64 bytes @ 0x20002B80) -- Read from C cache (2 bytes @ 0x20002B8C) - Data: 17 18  returns 0x02 (0006ms, 1022ms total)
T3550 004:033 JLINK_ReadMemEx(0x00000A80, 0x0002 Bytes, ..., Flags = 0x02000000) -- Read from C cache (2 bytes @ 0x00000A80) - Data: 06 4B  returns 0x02 (0000ms, 1022ms total)
T3550 004:033 JLINK_SetBPEx(Addr = 0x0002E07C, Type = 0xFFFFFFF2)  returns 0x00000001 (0000ms, 1022ms total)
T3550 004:033 JLINK_SetBPEx(Addr = 0x00026C70, Type = 0xFFFFFFF2)  returns 0x00000002 (0000ms, 1022ms total)
T3550 004:033 JLINK_Go() -- CPU_WriteMem(4 bytes @ 0xE0002000) -- CPU_WriteMem(4 bytes @ 0xE0002000) -- CPU_ReadMem(4 bytes @ 0xE0001000) -- CPU_WriteMem(4 bytes @ 0xE0002008) -- CPU_WriteMem(4 bytes @ 0xE000200C) -- CPU_WriteMem(4 bytes @ 0xE0002010) -- CPU_WriteMem(4 bytes @ 0xE0002014) -- CPU_WriteMem(4 bytes @ 0xE0002018) -- CPU_WriteMem(4 bytes @ 0xE000201C) -- CPU_WriteMem(4 bytes @ 0xE0001004) (0026ms, 1048ms total)
T3550 004:161 JLINK_IsHalted()  returns TRUE (0007ms, 1055ms total)
T3550 004:168 JLINK_Halt()  returns 0x00 (0000ms, 1048ms total)
T3550 004:168 JLINK_IsHalted()  returns TRUE (0000ms, 1048ms total)
T3550 004:168 JLINK_IsHalted()  returns TRUE (0000ms, 1048ms total)
T3550 004:168 JLINK_IsHalted()  returns TRUE (0000ms, 1048ms total)
T3550 004:168 JLINK_ReadReg(R15 (PC))  returns 0x0002E07C (0000ms, 1048ms total)
T3550 004:168 JLINK_ReadReg(XPSR)  returns 0x61000000 (0000ms, 1048ms total)
T3550 004:168 JLINK_ClrBPEx(BPHandle = 0x00000001)  returns 0x00 (0000ms, 1048ms total)
T3550 004:168 JLINK_ClrBPEx(BPHandle = 0x00000002)  returns 0x00 (0000ms, 1048ms total)
T3550 004:168 JLINK_ReadMemU32(0xE000ED30, 0x0001 Items, ...) -- CPU_ReadMem(4 bytes @ 0xE000ED30) - Data: 02 00 00 00  returns 1 (0006ms, 1054ms total)
T3550 004:174 JLINK_ReadMemU32(0xE0001028, 0x0001 Items, ...) -- CPU_ReadMem(4 bytes @ 0xE0001028) - Data: 00 00 00 00  returns 1 (0006ms, 1060ms total)
T3550 004:180 JLINK_ReadMemU32(0xE0001038, 0x0001 Items, ...) -- CPU_ReadMem(4 bytes @ 0xE0001038) - Data: 00 02 00 00  returns 1 (0005ms, 1065ms total)
T3550 004:185 JLINK_ReadMemU32(0xE0001048, 0x0001 Items, ...) -- CPU_ReadMem(4 bytes @ 0xE0001048) - Data: 00 00 00 00  returns 1 (0004ms, 1069ms total)
T3550 004:189 JLINK_ReadMemU32(0xE0001058, 0x0001 Items, ...) -- CPU_ReadMem(4 bytes @ 0xE0001058) - Data: 00 00 00 00  returns 1 (0004ms, 1073ms total)
T3550 004:193 JLINK_ReadReg(R0)  returns 0x0002E07D (0000ms, 1073ms total)
T3550 004:193 JLINK_ReadReg(R1)  returns 0x200067F8 (0000ms, 1073ms total)
T3550 004:193 JLINK_ReadReg(R2)  returns 0x00000000 (0000ms, 1073ms total)
T3550 004:193 JLINK_ReadReg(R3)  returns 0x00029631 (0000ms, 1073ms total)
T3550 004:193 JLINK_ReadReg(R4)  returns 0x00035670 (0000ms, 1073ms total)
T3550 004:193 JLINK_ReadReg(R5)  returns 0x00035670 (0000ms, 1073ms total)
T3550 004:193 JLINK_ReadReg(R6)  returns 0x10001000 (0000ms, 1073ms total)
T3550 004:193 JLINK_ReadReg(R7)  returns 0x00000000 (0000ms, 1073ms total)
T3550 004:193 JLINK_ReadReg(R8)  returns 0x00000000 (0000ms, 1073ms total)
T3550 004:193 JLINK_ReadReg(R9)  returns 0x00000000 (0000ms, 1073ms total)
T3550 004:193 JLINK_ReadReg(R10)  returns 0x00000000 (0000ms, 1073ms total)
T3550 004:193 JLINK_ReadReg(R11)  returns 0x00000000 (0000ms, 1073ms total)
T3550 004:193 JLINK_ReadReg(R12)  returns 0x00000000 (0000ms, 1073ms total)
T3550 004:193 JLINK_ReadReg(R13 (SP))  returns 0x200067F8 (0000ms, 1073ms total)
T3550 004:193 JLINK_ReadReg(R14)  returns 0x00026A3D (0000ms, 1073ms total)
T3550 004:193 JLINK_ReadReg(R15 (PC))  returns 0x0002E07C (0000ms, 1073ms total)
T3550 004:193 JLINK_ReadReg(XPSR)  returns 0x61000000 (0000ms, 1073ms total)
T3550 004:193 JLINK_ReadReg(MSP)  returns 0x200067F8 (0000ms, 1073ms total)
T3550 004:193 JLINK_ReadReg(PSP)  returns 0x00000000 (0000ms, 1073ms total)
T3550 004:193 JLINK_ReadReg(CFBP)  returns 0x00000000 (0000ms, 1073ms total)
T3550 004:193 JLINK_ReadReg(FPSCR)  returns 0x00000000 (0010ms, 1083ms total)
T3550 004:203 JLINK_ReadReg(FPS0)  returns 0x00000000 (0000ms, 1083ms total)
T3550 004:203 JLINK_ReadReg(FPS1)  returns 0x00000000 (0000ms, 1083ms total)
T3550 004:203 JLINK_ReadReg(FPS2)  returns 0x00000000 (0000ms, 1083ms total)
T3550 004:203 JLINK_ReadReg(FPS3)  returns 0x00000000 (0000ms, 1083ms total)
T3550 004:203 JLINK_ReadReg(FPS4)  returns 0x00000000 (0000ms, 1083ms total)
T3550 004:203 JLINK_ReadReg(FPS5)  returns 0x00000000 (0000ms, 1083ms total)
T3550 004:203 JLINK_ReadReg(FPS6)  returns 0x00000000 (0000ms, 1083ms total)
T3550 004:203 JLINK_ReadReg(FPS7)  returns 0x00000000 (0000ms, 1083ms total)
T3550 004:203 JLINK_ReadReg(FPS8)  returns 0x00000000 (0000ms, 1083ms total)
T3550 004:203 JLINK_ReadReg(FPS9)  returns 0x00000000 (0000ms, 1083ms total)
T3550 004:203 JLINK_ReadReg(FPS10)  returns 0x00000000 (0000ms, 1083ms total)
T3550 004:203 JLINK_ReadReg(FPS11)  returns 0x00000000 (0000ms, 1083ms total)
T3550 004:203 JLINK_ReadReg(FPS12)  returns 0x00000000 (0000ms, 1083ms total)
T3550 004:203 JLINK_ReadReg(FPS13)  returns 0x00000000 (0000ms, 1083ms total)
T3550 004:203 JLINK_ReadReg(FPS14)  returns 0x00000000 (0000ms, 1083ms total)
T3550 004:203 JLINK_ReadReg(FPS15)  returns 0x00000000 (0000ms, 1083ms total)
T3550 004:203 JLINK_ReadReg(FPS16)  returns 0x00000000 (0000ms, 1083ms total)
T3550 004:203 JLINK_ReadReg(FPS17)  returns 0x00000000 (0000ms, 1083ms total)
T3550 004:203 JLINK_ReadReg(FPS18)  returns 0x00000000 (0000ms, 1083ms total)
T3550 004:203 JLINK_ReadReg(FPS19)  returns 0x00000000 (0000ms, 1083ms total)
T3550 004:203 JLINK_ReadReg(FPS20)  returns 0x00000000 (0000ms, 1083ms total)
T3550 004:203 JLINK_ReadReg(FPS21)  returns 0x00000000 (0000ms, 1083ms total)
T3550 004:203 JLINK_ReadReg(FPS22)  returns 0x00000000 (0000ms, 1083ms total)
T3550 004:203 JLINK_ReadReg(FPS23)  returns 0x00000000 (0000ms, 1083ms total)
T3550 004:203 JLINK_ReadReg(FPS24)  returns 0x00000000 (0000ms, 1083ms total)
T3550 004:203 JLINK_ReadReg(FPS25)  returns 0x00000000 (0000ms, 1083ms total)
T3550 004:203 JLINK_ReadReg(FPS26)  returns 0x00000000 (0000ms, 1083ms total)
T3550 004:203 JLINK_ReadReg(FPS27)  returns 0x00000000 (0000ms, 1083ms total)
T3550 004:203 JLINK_ReadReg(FPS28)  returns 0x00000000 (0000ms, 1083ms total)
T3550 004:203 JLINK_ReadReg(FPS29)  returns 0x00000000 (0000ms, 1083ms total)
T3550 004:203 JLINK_ReadReg(FPS30)  returns 0x00000000 (0000ms, 1083ms total)
T3550 004:203 JLINK_ReadReg(FPS31)  returns 0x00000000 (0000ms, 1083ms total)
T2A68 004:204 JLINK_ReadMemEx(0x200067C4, 0x0001 Bytes, ..., Flags = 0x02000000) -- CPU_ReadMem(64 bytes @ 0x200067C0) -- Updating C cache (64 bytes @ 0x200067C0) -- Read from C cache (1 bytes @ 0x200067C4) - Data: 00  returns 0x01 (0004ms, 1087ms total)
T2A68 004:208 JLINK_ReadMemEx(0x200067AC, 0x0002 Bytes, ..., Flags = 0x02000000) -- CPU_ReadMem(64 bytes @ 0x20006780) -- Updating C cache (64 bytes @ 0x20006780) -- Read from C cache (2 bytes @ 0x200067AC) - Data: 00 00  returns 0x02 (0005ms, 1092ms total)
T2A68 004:213 JLINK_ReadMemEx(0x200067A8, 0x0001 Bytes, ..., Flags = 0x02000000) -- Read from C cache (1 bytes @ 0x200067A8) - Data: 00  returns 0x01 (0000ms, 1092ms total)
T2A68 004:213 JLINK_ReadMemEx(0x00000000, 0x0001 Bytes, ..., Flags = 0x02000000) -- CPU_ReadMem(64 bytes @ 0x00000000) -- Updating C cache (64 bytes @ 0x00000000) -- Read from C cache (1 bytes @ 0x00000000) - Data: 00  returns 0x01 (0004ms, 1096ms total)
T2A68 004:217 JLINK_ReadMemEx(0x00000000, 0x0002 Bytes, ..., Flags = 0x02000000) -- Read from C cache (2 bytes @ 0x00000000) - Data: 00 04  returns 0x02 (0000ms, 1096ms total)
T2A68 004:217 JLINK_ReadMemEx(0x00000000, 0x0004 Bytes, ..., Flags = 0x02000000) -- Read from C cache (4 bytes @ 0x00000000) - Data: 00 04 00 20  returns 0x04 (0000ms, 1096ms total)
T2A68 004:229 JLINK_ReadMemEx(0x20002B8C, 0x0002 Bytes, ..., Flags = 0x02000000) -- CPU_ReadMem(64 bytes @ 0x20002B80) -- Updating C cache (64 bytes @ 0x20002B80) -- Read from C cache (2 bytes @ 0x20002B8C) - Data: 00 00  returns 0x02 (0005ms, 1101ms total)
T2A68 004:236 JLINK_ReadMemEx(0x0002E07C, 0x003C Bytes, ..., Flags = 0x02000000) -- CPU_ReadMem(128 bytes @ 0x0002E040) -- Updating C cache (128 bytes @ 0x0002E040) -- Read from C cache (60 bytes @ 0x0002E07C) - Data: 2D ED 0C 8B 9A B0 00 BF 06 F0 B9 FA FA F7 24 F9 ...  returns 0x3C (0005ms, 1106ms total)
T3550 005:747 JLINK_ReadMemEx(0x0002E07C, 0x0002 Bytes, ..., Flags = 0x02000000) -- Read from C cache (2 bytes @ 0x0002E07C) - Data: 2D ED  returns 0x02 (0000ms, 1106ms total)
T3550 005:747 JLINK_SetBPEx(Addr = 0x00026C70, Type = 0xFFFFFFF2)  returns 0x00000003 (0000ms, 1106ms total)
T3550 005:747 JLINK_Go() -- CPU_WriteMem(4 bytes @ 0xE0002000) -- CPU_ReadMem(4 bytes @ 0xE0001000) -- CPU_WriteMem(4 bytes @ 0xE0002008) -- CPU_WriteMem(4 bytes @ 0xE000200C) (0022ms, 1128ms total)
T3550 005:870 JLINK_IsHalted()  returns FALSE (0002ms, 1130ms total)
T3550 005:973 JLINK_IsHalted()  returns FALSE (0006ms, 1134ms total)
T3550 006:080 JLINK_IsHalted()  returns FALSE (0005ms, 1133ms total)
T3550 006:186 JLINK_IsHalted()  returns FALSE (0004ms, 1132ms total)
T3550 006:290 JLINK_IsHalted()  returns FALSE (0005ms, 1133ms total)
T3550 006:396 JLINK_IsHalted()  returns FALSE (0005ms, 1133ms total)
T3550 006:502 JLINK_IsHalted()  returns FALSE (0003ms, 1131ms total)
T3550 006:607 JLINK_IsHalted()  returns FALSE (0005ms, 1133ms total)
T3550 006:712 JLINK_IsHalted()  returns FALSE (0003ms, 1131ms total)
T3550 006:816 JLINK_IsHalted()  returns FALSE (0006ms, 1134ms total)
T3550 006:923 JLINK_IsHalted()  returns FALSE (0002ms, 1130ms total)
T3550 007:026 JLINK_IsHalted()  returns FALSE (0003ms, 1131ms total)
T3550 007:129 JLINK_IsHalted()  returns FALSE (0004ms, 1132ms total)
T3550 007:234 JLINK_IsHalted()  returns FALSE (0003ms, 1131ms total)
T3550 007:338 JLINK_IsHalted()  returns FALSE (0005ms, 1133ms total)
T3550 007:443 JLINK_IsHalted()  returns FALSE (0004ms, 1132ms total)
T3550 007:549 JLINK_IsHalted()  returns FALSE (0002ms, 1130ms total)
T3550 007:653 JLINK_IsHalted()  returns FALSE (0005ms, 1133ms total)
T3550 007:759 JLINK_IsHalted()  returns FALSE (0003ms, 1131ms total)
T3550 007:863 JLINK_IsHalted()  returns FALSE (0005ms, 1133ms total)
T3550 007:969 JLINK_IsHalted()  returns FALSE (0004ms, 1132ms total)
T3550 008:074 JLINK_IsHalted()  returns FALSE (0005ms, 1133ms total)
T3550 008:180 JLINK_IsHalted()  returns FALSE (0003ms, 1131ms total)
T3550 008:284 JLINK_IsHalted()  returns FALSE (0003ms, 1131ms total)
T3550 008:388 JLINK_IsHalted()  returns FALSE (0004ms, 1132ms total)
T3550 008:493 JLINK_IsHalted()  returns FALSE (0005ms, 1133ms total)
T3550 008:598 JLINK_IsHalted()  returns FALSE (0005ms, 1133ms total)
T3550 008:704 JLINK_IsHalted()  returns FALSE (0004ms, 1132ms total)
T3550 008:809 JLINK_IsHalted()  returns FALSE (0005ms, 1133ms total)
T3550 008:915 JLINK_IsHalted()  returns FALSE (0004ms, 1132ms total)
T3550 009:020 JLINK_IsHalted()  returns FALSE (0002ms, 1130ms total)
T3550 009:123 JLINK_IsHalted()  returns FALSE (0005ms, 1133ms total)
T3550 009:229 JLINK_IsHalted()  returns FALSE (0005ms, 1133ms total)
T3550 009:335 JLINK_IsHalted()  returns FALSE (0001ms, 1129ms total)
T3550 009:438 JLINK_IsHalted()  returns FALSE (0003ms, 1131ms total)
T3550 009:542 JLINK_IsHalted()  returns FALSE (0003ms, 1131ms total)
T3550 009:647 JLINK_IsHalted()  returns FALSE (0003ms, 1131ms total)
T3550 009:751 JLINK_IsHalted()  returns FALSE (0005ms, 1133ms total)
T3550 009:858 JLINK_IsHalted()  returns FALSE (0001ms, 1129ms total)
T3550 009:961 JLINK_IsHalted()  returns FALSE (0001ms, 1129ms total)
T3550 010:064 JLINK_IsHalted()  returns FALSE (0005ms, 1133ms total)
T3550 010:170 JLINK_IsHalted()  returns FALSE (0005ms, 1133ms total)
T3550 010:276 JLINK_IsHalted()  returns FALSE (0002ms, 1130ms total)
T3550 010:379 JLINK_IsHalted()  returns FALSE (0002ms, 1130ms total)
T3550 010:482 JLINK_IsHalted()  returns FALSE (0005ms, 1133ms total)
T3550 010:588 JLINK_IsHalted()  returns FALSE (0005ms, 1133ms total)
T3550 010:693 JLINK_IsHalted()  returns FALSE (0005ms, 1133ms total)
T3550 010:799 JLINK_IsHalted()  returns FALSE (0005ms, 1133ms total)
T3550 010:904 JLINK_IsHalted()  returns FALSE (0004ms, 1132ms total)
T3550 011:009 JLINK_IsHalted()  returns FALSE (0005ms, 1133ms total)
T3550 011:115 JLINK_IsHalted()  returns FALSE (0003ms, 1131ms total)
T3550 011:220 JLINK_IsHalted()  returns FALSE (0003ms, 1131ms total)
T3550 011:324 JLINK_IsHalted()  returns FALSE (0005ms, 1133ms total)
T3550 011:430 JLINK_IsHalted()  returns FALSE (0004ms, 1132ms total)
T3550 011:535 JLINK_IsHalted()  returns FALSE (0004ms, 1132ms total)
T3550 011:640 JLINK_IsHalted()  returns FALSE (0005ms, 1133ms total)
T3550 011:747 JLINK_IsHalted()  returns FALSE (0004ms, 1132ms total)
T3550 011:852 JLINK_IsHalted()  returns FALSE (0001ms, 1129ms total)
T3550 011:955 JLINK_IsHalted()  returns FALSE (0004ms, 1132ms total)
T3550 012:059 JLINK_IsHalted()  returns FALSE (0004ms, 1132ms total)
T3550 012:164 JLINK_IsHalted()  returns FALSE (0004ms, 1132ms total)
T3550 012:270 JLINK_IsHalted()  returns FALSE (0005ms, 1133ms total)
T3550 012:376 JLINK_IsHalted()  returns FALSE (0002ms, 1130ms total)
T3550 012:480 JLINK_IsHalted()  returns FALSE (0004ms, 1132ms total)
T3550 012:585 JLINK_IsHalted()  returns FALSE (0004ms, 1132ms total)
T3550 012:691 JLINK_IsHalted()  returns FALSE (0004ms, 1132ms total)
T3550 012:796 JLINK_IsHalted()  returns FALSE (0003ms, 1131ms total)
T3550 012:900 JLINK_IsHalted()  returns FALSE (0004ms, 1132ms total)
T3550 013:006 JLINK_IsHalted()  returns FALSE (0005ms, 1133ms total)
T2A68 013:094 JLINK_SetBPEx(Addr = 0x0002E278, Type = 0xFFFFFFF2) -- CPU is running -- CPU is running -- CPU_WriteMem(4 bytes @ 0xE0002000) -- CPU is running -- CPU_WriteMem(4 bytes @ 0xE000200C)  returns 0x00000004 (0009ms, 1137ms total)
T3550 013:112 JLINK_IsHalted()  returns FALSE (0004ms, 1141ms total)
T3550 013:217 JLINK_IsHalted()  returns FALSE (0003ms, 1140ms total)
T3550 013:321 JLINK_IsHalted()  returns FALSE (0005ms, 1142ms total)
T3550 013:428 JLINK_IsHalted()  returns FALSE (0004ms, 1141ms total)
T3550 013:532 JLINK_IsHalted()  returns FALSE (0004ms, 1141ms total)
T3550 013:641 JLINK_IsHalted()  returns FALSE (0004ms, 1141ms total)
T3550 013:746 JLINK_IsHalted()  returns FALSE (0004ms, 1141ms total)
T3550 013:851 JLINK_IsHalted()  returns FALSE (0004ms, 1141ms total)
T3550 013:956 JLINK_IsHalted()  returns FALSE (0004ms, 1141ms total)
T3550 014:061 JLINK_IsHalted()  returns FALSE (0003ms, 1140ms total)
T3550 014:166 JLINK_IsHalted()  returns FALSE (0003ms, 1140ms total)
T3550 014:271 JLINK_IsHalted()  returns FALSE (0003ms, 1140ms total)
T3550 014:375 JLINK_IsHalted()  returns FALSE (0002ms, 1139ms total)
T3550 014:478 JLINK_IsHalted()  returns FALSE (0005ms, 1142ms total)
T3550 014:584 JLINK_IsHalted()  returns FALSE (0002ms, 1139ms total)
T3550 014:687 JLINK_IsHalted()  returns FALSE (0005ms, 1142ms total)
T3550 014:793 JLINK_IsHalted()  returns FALSE (0004ms, 1141ms total)
T3550 014:898 JLINK_IsHalted()  returns FALSE (0003ms, 1140ms total)
T3550 015:002 JLINK_IsHalted()  returns FALSE (0004ms, 1141ms total)
T3550 015:106 JLINK_IsHalted()  returns FALSE (0005ms, 1142ms total)
T3550 015:212 JLINK_IsHalted()  returns FALSE (0005ms, 1142ms total)
T3550 015:318 JLINK_IsHalted()  returns FALSE (0004ms, 1141ms total)
T3550 015:423 JLINK_IsHalted()  returns FALSE (0003ms, 1140ms total)
T3550 015:527 JLINK_IsHalted()  returns FALSE (0004ms, 1141ms total)
T3550 015:632 JLINK_IsHalted()  returns FALSE (0003ms, 1140ms total)
T3550 015:735 JLINK_IsHalted()  returns FALSE (0004ms, 1141ms total)
T3550 015:840 JLINK_IsHalted()  returns FALSE (0004ms, 1141ms total)
T3550 015:945 JLINK_IsHalted()  returns FALSE (0004ms, 1141ms total)
T3550 016:050 JLINK_IsHalted()  returns FALSE (0003ms, 1140ms total)
T3550 016:154 JLINK_IsHalted()  returns FALSE (0004ms, 1141ms total)
T3550 016:259 JLINK_IsHalted()  returns FALSE (0004ms, 1141ms total)
T3550 016:364 JLINK_IsHalted()  returns FALSE (0004ms, 1141ms total)
T3550 016:469 JLINK_IsHalted()  returns FALSE (0003ms, 1140ms total)
T3550 016:573 JLINK_IsHalted()  returns FALSE (0003ms, 1140ms total)
T3550 016:678 JLINK_IsHalted()  returns FALSE (0004ms, 1141ms total)
T3550 016:782 JLINK_IsHalted()  returns FALSE (0004ms, 1141ms total)
T3550 016:887 JLINK_IsHalted()  returns FALSE (0004ms, 1141ms total)
T3550 016:992 JLINK_IsHalted()  returns FALSE (0004ms, 1141ms total)
T3550 017:097 JLINK_IsHalted()  returns FALSE (0003ms, 1140ms total)
T3550 017:205 JLINK_IsHalted()  returns FALSE (0004ms, 1141ms total)
T3550 017:310 JLINK_IsHalted()  returns FALSE (0004ms, 1141ms total)
T3550 017:415 JLINK_IsHalted()  returns FALSE (0005ms, 1142ms total)
T3550 017:521 JLINK_IsHalted()  returns FALSE (0005ms, 1142ms total)
T3550 017:627 JLINK_IsHalted()  returns FALSE (0003ms, 1140ms total)
T3550 017:731 JLINK_IsHalted()  returns FALSE (0005ms, 1142ms total)
T3550 017:838 JLINK_IsHalted()  returns FALSE (0003ms, 1140ms total)
T3550 017:942 JLINK_IsHalted()  returns FALSE (0005ms, 1142ms total)
T3550 018:048 JLINK_IsHalted()  returns FALSE (0004ms, 1141ms total)
T3550 018:153 JLINK_IsHalted()  returns FALSE (0003ms, 1140ms total)
T3550 018:258 JLINK_IsHalted()  returns FALSE (0003ms, 1140ms total)
T3550 018:362 JLINK_IsHalted()  returns FALSE (0003ms, 1140ms total)
T3550 018:466 JLINK_IsHalted()  returns FALSE (0004ms, 1141ms total)
T3550 018:571 JLINK_IsHalted()  returns FALSE (0004ms, 1141ms total)
T3550 018:676 JLINK_IsHalted()  returns FALSE (0004ms, 1141ms total)
T3550 018:781 JLINK_IsHalted()  returns FALSE (0005ms, 1142ms total)
T3550 018:887 JLINK_IsHalted()  returns FALSE (0003ms, 1140ms total)
T3550 018:991 JLINK_IsHalted()  returns FALSE (0004ms, 1141ms total)
T3550 019:096 JLINK_IsHalted()  returns FALSE (0004ms, 1141ms total)
T3550 019:201 JLINK_IsHalted()  returns FALSE (0002ms, 1139ms total)
T3550 019:304 JLINK_IsHalted()  returns FALSE (0005ms, 1142ms total)
T3550 019:410 JLINK_IsHalted()  returns FALSE (0004ms, 1141ms total)
T3550 019:515 JLINK_IsHalted()  returns FALSE (0005ms, 1142ms total)
T3550 019:621 JLINK_IsHalted()  returns FALSE (0005ms, 1142ms total)
T3550 019:726 JLINK_IsHalted()  returns FALSE (0003ms, 1140ms total)
T3550 019:830 JLINK_IsHalted()  returns FALSE (0003ms, 1140ms total)
T3550 019:934 JLINK_IsHalted()  returns FALSE (0004ms, 1141ms total)
T3550 020:039 JLINK_IsHalted()  returns FALSE (0004ms, 1141ms total)
T3550 020:145 JLINK_IsHalted()  returns FALSE (0004ms, 1141ms total)
T3550 020:250 JLINK_IsHalted()  returns FALSE (0002ms, 1139ms total)
T3550 020:352 JLINK_IsHalted()  returns FALSE (0004ms, 1141ms total)
T3550 020:457 JLINK_IsHalted()  returns FALSE (0002ms, 1139ms total)
T3550 020:560 JLINK_IsHalted()  returns FALSE (0002ms, 1139ms total)
T3550 020:663 JLINK_IsHalted()  returns FALSE (0005ms, 1142ms total)
T3550 020:769 JLINK_IsHalted()  returns FALSE (0005ms, 1142ms total)
T3550 020:874 JLINK_IsHalted()  returns FALSE (0004ms, 1141ms total)
T3550 020:979 JLINK_IsHalted()  returns FALSE (0003ms, 1140ms total)
T3550 021:085 JLINK_IsHalted()  returns FALSE (0004ms, 1141ms total)
T3550 021:190 JLINK_IsHalted()  returns FALSE (0002ms, 1139ms total)
T3550 021:293 JLINK_IsHalted()  returns FALSE (0003ms, 1140ms total)
T3550 021:397 JLINK_IsHalted()  returns FALSE (0004ms, 1141ms total)
T3550 021:502 JLINK_IsHalted()  returns FALSE (0004ms, 1141ms total)
T3550 021:608 JLINK_IsHalted()  returns FALSE (0003ms, 1140ms total)
T3550 021:711 JLINK_IsHalted()  returns TRUE (0008ms, 1145ms total)
T3550 021:719 JLINK_Halt()  returns 0x00 (0000ms, 1137ms total)
T3550 021:719 JLINK_IsHalted()  returns TRUE (0000ms, 1137ms total)
T3550 021:719 JLINK_IsHalted()  returns TRUE (0000ms, 1137ms total)
T3550 021:719 JLINK_IsHalted()  returns TRUE (0000ms, 1137ms total)
T3550 021:719 JLINK_ReadReg(R15 (PC))  returns 0x0002E278 (0000ms, 1137ms total)
T3550 021:719 JLINK_ReadReg(XPSR)  returns 0x21000000 (0000ms, 1137ms total)
T3550 021:719 JLINK_ClrBPEx(BPHandle = 0x00000003)  returns 0x00 (0000ms, 1137ms total)
T3550 021:719 JLINK_ClrBPEx(BPHandle = 0x00000004)  returns 0x00 (0000ms, 1137ms total)
T3550 021:719 JLINK_ReadMemU32(0xE000ED30, 0x0001 Items, ...) -- CPU_ReadMem(4 bytes @ 0xE000ED30) - Data: 02 00 00 00  returns 1 (0004ms, 1141ms total)
T3550 021:723 JLINK_ReadMemU32(0xE0001028, 0x0001 Items, ...) -- CPU_ReadMem(4 bytes @ 0xE0001028) - Data: 00 00 00 00  returns 1 (0005ms, 1146ms total)
T3550 021:728 JLINK_ReadMemU32(0xE0001038, 0x0001 Items, ...) -- CPU_ReadMem(4 bytes @ 0xE0001038) - Data: 00 02 00 00  returns 1 (0004ms, 1150ms total)
T3550 021:732 JLINK_ReadMemU32(0xE0001048, 0x0001 Items, ...) -- CPU_ReadMem(4 bytes @ 0xE0001048) - Data: 00 00 00 00  returns 1 (0004ms, 1154ms total)
T3550 021:736 JLINK_ReadMemU32(0xE0001058, 0x0001 Items, ...) -- CPU_ReadMem(4 bytes @ 0xE0001058) - Data: 00 00 00 00  returns 1 (0005ms, 1159ms total)
T3550 021:741 JLINK_ReadReg(R0)  returns 0x406A3D71 (0000ms, 1159ms total)
T3550 021:741 JLINK_ReadReg(R1)  returns 0x47AE1480 (0000ms, 1159ms total)
T3550 021:741 JLINK_ReadReg(R2)  returns 0x00000080 (0000ms, 1159ms total)
T3550 021:741 JLINK_ReadReg(R3)  returns 0x00000000 (0000ms, 1159ms total)
T3550 021:741 JLINK_ReadReg(R4)  returns 0x00000005 (0000ms, 1159ms total)
T3550 021:741 JLINK_ReadReg(R5)  returns 0x00035670 (0000ms, 1159ms total)
T3550 021:741 JLINK_ReadReg(R6)  returns 0x0000020C (0000ms, 1159ms total)
T3550 021:741 JLINK_ReadReg(R7)  returns 0x00000000 (0000ms, 1159ms total)
T3550 021:741 JLINK_ReadReg(R8)  returns 0x00000000 (0000ms, 1159ms total)
T3550 021:741 JLINK_ReadReg(R9)  returns 0x00000000 (0000ms, 1159ms total)
T3550 021:741 JLINK_ReadReg(R10)  returns 0x00000000 (0000ms, 1159ms total)
T3550 021:741 JLINK_ReadReg(R11)  returns 0x00000000 (0000ms, 1159ms total)
T3550 021:741 JLINK_ReadReg(R12)  returns 0x001D47AE (0000ms, 1159ms total)
T3550 021:741 JLINK_ReadReg(R13 (SP))  returns 0x20006760 (0000ms, 1159ms total)
T3550 021:741 JLINK_ReadReg(R14)  returns 0x0002E275 (0000ms, 1159ms total)
T3550 021:741 JLINK_ReadReg(R15 (PC))  returns 0x0002E278 (0000ms, 1159ms total)
T3550 021:741 JLINK_ReadReg(XPSR)  returns 0x21000000 (0000ms, 1159ms total)
T3550 021:741 JLINK_ReadReg(MSP)  returns 0x20006760 (0000ms, 1159ms total)
T3550 021:741 JLINK_ReadReg(PSP)  returns 0x00000000 (0000ms, 1159ms total)
T3550 021:741 JLINK_ReadReg(CFBP)  returns 0x04000000 (0000ms, 1159ms total)
T3550 021:741 JLINK_ReadReg(FPSCR)  returns 0x00000010 (0011ms, 1170ms total)
T3550 021:752 JLINK_ReadReg(FPS0)  returns 0x00000000 (0000ms, 1170ms total)
T3550 021:752 JLINK_ReadReg(FPS1)  returns 0x40490000 (0000ms, 1170ms total)
T3550 021:752 JLINK_ReadReg(FPS2)  returns 0x44800000 (0000ms, 1170ms total)
T3550 021:752 JLINK_ReadReg(FPS3)  returns 0x00000000 (0000ms, 1170ms total)
T3550 021:752 JLINK_ReadReg(FPS4)  returns 0x00000000 (0000ms, 1170ms total)
T3550 021:752 JLINK_ReadReg(FPS5)  returns 0x00000000 (0000ms, 1170ms total)
T3550 021:752 JLINK_ReadReg(FPS6)  returns 0x00000000 (0000ms, 1170ms total)
T3550 021:752 JLINK_ReadReg(FPS7)  returns 0x00000000 (0000ms, 1170ms total)
T3550 021:752 JLINK_ReadReg(FPS8)  returns 0x00000000 (0000ms, 1170ms total)
T3550 021:752 JLINK_ReadReg(FPS9)  returns 0x00000000 (0000ms, 1170ms total)
T3550 021:752 JLINK_ReadReg(FPS10)  returns 0x00000000 (0000ms, 1170ms total)
T3550 021:752 JLINK_ReadReg(FPS11)  returns 0x00000000 (0000ms, 1170ms total)
T3550 021:752 JLINK_ReadReg(FPS12)  returns 0x00000000 (0000ms, 1170ms total)
T3550 021:752 JLINK_ReadReg(FPS13)  returns 0x00000000 (0000ms, 1170ms total)
T3550 021:752 JLINK_ReadReg(FPS14)  returns 0x00000000 (0000ms, 1170ms total)
T3550 021:752 JLINK_ReadReg(FPS15)  returns 0x00000000 (0000ms, 1170ms total)
T3550 021:752 JLINK_ReadReg(FPS16)  returns 0x406A3D71 (0000ms, 1170ms total)
T3550 021:752 JLINK_ReadReg(FPS17)  returns 0x00000000 (0000ms, 1170ms total)
T3550 021:752 JLINK_ReadReg(FPS18)  returns 0x147AE148 (0000ms, 1170ms total)
T3550 021:752 JLINK_ReadReg(FPS19)  returns 0x400D47AE (0000ms, 1170ms total)
T3550 021:752 JLINK_ReadReg(FPS20)  returns 0x00000000 (0000ms, 1170ms total)
T3550 021:752 JLINK_ReadReg(FPS21)  returns 0x4066E000 (0000ms, 1170ms total)
T3550 021:752 JLINK_ReadReg(FPS22)  returns 0x00000000 (0000ms, 1170ms total)
T3550 021:752 JLINK_ReadReg(FPS23)  returns 0x4066FBC0 (0000ms, 1170ms total)
T3550 021:752 JLINK_ReadReg(FPS24)  returns 0x00000000 (0000ms, 1170ms total)
T3550 021:752 JLINK_ReadReg(FPS25)  returns 0x00000000 (0000ms, 1170ms total)
T3550 021:752 JLINK_ReadReg(FPS26)  returns 0x00000000 (0000ms, 1170ms total)
T3550 021:752 JLINK_ReadReg(FPS27)  returns 0x00000000 (0000ms, 1170ms total)
T3550 021:752 JLINK_ReadReg(FPS28)  returns 0x00000000 (0000ms, 1170ms total)
T3550 021:752 JLINK_ReadReg(FPS29)  returns 0x00000000 (0000ms, 1170ms total)
T3550 021:752 JLINK_ReadReg(FPS30)  returns 0x00000000 (0000ms, 1170ms total)
T3550 021:752 JLINK_ReadReg(FPS31)  returns 0x00000000 (0000ms, 1170ms total)
T2A68 021:753 JLINK_ReadMemEx(0x200067C4, 0x0001 Bytes, ..., Flags = 0x02000000) -- CPU_ReadMem(64 bytes @ 0x200067C0) -- Updating C cache (64 bytes @ 0x200067C0) -- Read from C cache (1 bytes @ 0x200067C4) - Data: 00  returns 0x01 (0004ms, 1174ms total)
T2A68 021:757 JLINK_ReadMemEx(0x200067AC, 0x0002 Bytes, ..., Flags = 0x02000000) -- CPU_ReadMem(64 bytes @ 0x20006780) -- Updating C cache (64 bytes @ 0x20006780) -- Read from C cache (2 bytes @ 0x200067AC) - Data: 00 00  returns 0x02 (0005ms, 1179ms total)
T2A68 021:763 JLINK_ReadMemEx(0x200067A8, 0x0001 Bytes, ..., Flags = 0x02000000) -- Read from C cache (1 bytes @ 0x200067A8) - Data: 00  returns 0x01 (0000ms, 1179ms total)
T2A68 021:763 JLINK_ReadMemEx(0x00000000, 0x0001 Bytes, ..., Flags = 0x02000000) -- CPU_ReadMem(64 bytes @ 0x00000000) -- Updating C cache (64 bytes @ 0x00000000) -- Read from C cache (1 bytes @ 0x00000000) - Data: 00  returns 0x01 (0005ms, 1184ms total)
T2A68 021:768 JLINK_ReadMemEx(0x00000000, 0x0002 Bytes, ..., Flags = 0x02000000) -- Read from C cache (2 bytes @ 0x00000000) - Data: 00 04  returns 0x02 (0000ms, 1184ms total)
T2A68 021:768 JLINK_ReadMemEx(0x00000000, 0x0004 Bytes, ..., Flags = 0x02000000) -- Read from C cache (4 bytes @ 0x00000000) - Data: 00 04 00 20  returns 0x04 (0000ms, 1184ms total)
T2A68 021:768 JLINK_ReadMemEx(0x20002B8C, 0x0002 Bytes, ..., Flags = 0x02000000) -- CPU_ReadMem(64 bytes @ 0x20002B80) -- Updating C cache (64 bytes @ 0x20002B80) -- Read from C cache (2 bytes @ 0x20002B8C) - Data: 17 18  returns 0x02 (0006ms, 1190ms total)
T2A68 063:129 JLINK_ReadMemEx(0x0002E2C0, 0x003C Bytes, ..., Flags = 0x02000000) -- CPU_ReadMem(64 bytes @ 0x0002E2C0) -- Updating C cache (64 bytes @ 0x0002E2C0) -- Read from C cache (60 bytes @ 0x0002E2C0) - Data: 0A 20 F9 F7 87 F8 00 20 05 90 C9 F1 FF 00 00 E0 ...  returns 0x3C (0002ms, 1192ms total)
T3550 107:018 JLINK_ReadMemEx(0x0002E278, 0x0002 Bytes, ..., Flags = 0x02000000) -- CPU_ReadMem(64 bytes @ 0x0002E240) -- Updating C cache (64 bytes @ 0x0002E240) -- Read from C cache (2 bytes @ 0x0002E278) - Data: 00 24  returns 0x02 (0003ms, 1195ms total)
T3550 107:021 JLINK_Step() -- Read from C cache (2 bytes @ 0x0002E278) -- CPU_ReadMem(4 bytes @ 0xE000ED18) -- CPU_WriteMem(4 bytes @ 0xE000ED18) -- CPU_ReadMem(4 bytes @ 0xE000ED18) -- CPU_WriteMem(4 bytes @ 0xE000ED18) -- CPU_ReadMem(4 bytes @ 0xE0001004) -- Simulated  returns 0x00 (0027ms, 1222ms total)
T3550 107:048 JLINK_ReadReg(R15 (PC))  returns 0x0002E27A (0000ms, 1222ms total)
T3550 107:048 JLINK_ReadReg(XPSR)  returns 0x61000000 (0000ms, 1222ms total)
T3550 107:048 JLINK_SetBPEx(Addr = 0x00026C70, Type = 0xFFFFFFF2)  returns 0x00000005 (0000ms, 1222ms total)
T3550 107:048 JLINK_SetBPEx(Addr = 0x0002E278, Type = 0xFFFFFFF2)  returns 0x00000006 (0000ms, 1222ms total)
T3550 107:048 JLINK_SetBPEx(Addr = 0x0002E304, Type = 0xFFFFFFF2)  returns 0x00000007 (0000ms, 1222ms total)
T3550 107:048 JLINK_Go() -- CPU_WriteMem(4 bytes @ 0xE0002000) -- CPU_WriteMem(4 bytes @ 0xE0002000) -- CPU_WriteMem(4 bytes @ 0xE0002000) -- CPU_ReadMem(4 bytes @ 0xE0001000) -- CPU_WriteMem(4 bytes @ 0xE0002010) -- CPU_WriteMem(4 bytes @ 0xE0001004) (0036ms, 1258ms total)
T3550 107:185 JLINK_IsHalted()  returns TRUE (0007ms, 1265ms total)
T3550 107:192 JLINK_Halt()  returns 0x00 (0000ms, 1258ms total)
T3550 107:192 JLINK_IsHalted()  returns TRUE (0000ms, 1258ms total)
T3550 107:192 JLINK_IsHalted()  returns TRUE (0000ms, 1258ms total)
T3550 107:192 JLINK_IsHalted()  returns TRUE (0000ms, 1258ms total)
T3550 107:192 JLINK_ReadReg(R15 (PC))  returns 0x0002E278 (0000ms, 1258ms total)
T3550 107:192 JLINK_ReadReg(XPSR)  returns 0xA1000000 (0000ms, 1258ms total)
T3550 107:192 JLINK_ClrBPEx(BPHandle = 0x00000005)  returns 0x00 (0000ms, 1258ms total)
T3550 107:192 JLINK_ClrBPEx(BPHandle = 0x00000006)  returns 0x00 (0000ms, 1258ms total)
T3550 107:192 JLINK_ClrBPEx(BPHandle = 0x00000007)  returns 0x00 (0000ms, 1258ms total)
T3550 107:192 JLINK_ReadMemU32(0xE000ED30, 0x0001 Items, ...) -- CPU_ReadMem(4 bytes @ 0xE000ED30) - Data: 02 00 00 00  returns 1 (0005ms, 1263ms total)
T3550 107:197 JLINK_ReadMemU32(0xE0001028, 0x0001 Items, ...) -- CPU_ReadMem(4 bytes @ 0xE0001028) - Data: 00 00 00 00  returns 1 (0004ms, 1267ms total)
T3550 107:201 JLINK_ReadMemU32(0xE0001038, 0x0001 Items, ...) -- CPU_ReadMem(4 bytes @ 0xE0001038) - Data: 00 02 00 00  returns 1 (0004ms, 1271ms total)
T3550 107:205 JLINK_ReadMemU32(0xE0001048, 0x0001 Items, ...) -- CPU_ReadMem(4 bytes @ 0xE0001048) - Data: 00 00 00 00  returns 1 (0005ms, 1276ms total)
T3550 107:210 JLINK_ReadMemU32(0xE0001058, 0x0001 Items, ...) -- CPU_ReadMem(4 bytes @ 0xE0001058) - Data: 00 00 00 00  returns 1 (0005ms, 1281ms total)
T3550 107:215 JLINK_ReadReg(R0)  returns 0x408E147B (0000ms, 1281ms total)
T3550 107:215 JLINK_ReadReg(R1)  returns 0xC28F5C30 (0000ms, 1281ms total)
T3550 107:215 JLINK_ReadReg(R2)  returns 0x00000081 (0000ms, 1281ms total)
T3550 107:215 JLINK_ReadReg(R3)  returns 0x00000000 (0000ms, 1281ms total)
T3550 107:215 JLINK_ReadReg(R4)  returns 0x00000005 (0000ms, 1281ms total)
T3550 107:215 JLINK_ReadReg(R5)  returns 0x00035670 (0000ms, 1281ms total)
T3550 107:215 JLINK_ReadReg(R6)  returns 0x00000210 (0000ms, 1281ms total)
T3550 107:215 JLINK_ReadReg(R7)  returns 0x00000000 (0000ms, 1281ms total)
T3550 107:215 JLINK_ReadReg(R8)  returns 0x00000000 (0000ms, 1281ms total)
T3550 107:215 JLINK_ReadReg(R9)  returns 0x00000020 (0000ms, 1281ms total)
T3550 107:215 JLINK_ReadReg(R10)  returns 0x00000000 (0000ms, 1281ms total)
T3550 107:215 JLINK_ReadReg(R11)  returns 0x00000000 (0000ms, 1281ms total)
T3550 107:215 JLINK_ReadReg(R12)  returns 0x0011C28F (0000ms, 1281ms total)
T3550 107:215 JLINK_ReadReg(R13 (SP))  returns 0x20006760 (0000ms, 1281ms total)
T3550 107:215 JLINK_ReadReg(R14)  returns 0x0002E275 (0000ms, 1281ms total)
T3550 107:215 JLINK_ReadReg(R15 (PC))  returns 0x0002E278 (0000ms, 1281ms total)
T3550 107:215 JLINK_ReadReg(XPSR)  returns 0xA1000000 (0000ms, 1281ms total)
T3550 107:215 JLINK_ReadReg(MSP)  returns 0x20006760 (0000ms, 1281ms total)
T3550 107:215 JLINK_ReadReg(PSP)  returns 0x00000000 (0000ms, 1281ms total)
T3550 107:215 JLINK_ReadReg(CFBP)  returns 0x04000000 (0000ms, 1281ms total)
T3550 107:215 JLINK_ReadReg(FPSCR)  returns 0x80000010 (0010ms, 1291ms total)
T3550 107:225 JLINK_ReadReg(FPS0)  returns 0x00000000 (0000ms, 1291ms total)
T3550 107:225 JLINK_ReadReg(FPS1)  returns 0x40490000 (0000ms, 1291ms total)
T3550 107:225 JLINK_ReadReg(FPS2)  returns 0x44800000 (0000ms, 1291ms total)
T3550 107:225 JLINK_ReadReg(FPS3)  returns 0x00000000 (0000ms, 1291ms total)
T3550 107:225 JLINK_ReadReg(FPS4)  returns 0x00000000 (0000ms, 1291ms total)
T3550 107:225 JLINK_ReadReg(FPS5)  returns 0x00000000 (0000ms, 1291ms total)
T3550 107:225 JLINK_ReadReg(FPS6)  returns 0x00000000 (0000ms, 1291ms total)
T3550 107:225 JLINK_ReadReg(FPS7)  returns 0x00000000 (0000ms, 1291ms total)
T3550 107:225 JLINK_ReadReg(FPS8)  returns 0x00000000 (0000ms, 1291ms total)
T3550 107:225 JLINK_ReadReg(FPS9)  returns 0x00000000 (0000ms, 1291ms total)
T3550 107:225 JLINK_ReadReg(FPS10)  returns 0x00000000 (0000ms, 1291ms total)
T3550 107:225 JLINK_ReadReg(FPS11)  returns 0x00000000 (0000ms, 1291ms total)
T3550 107:225 JLINK_ReadReg(FPS12)  returns 0x00000000 (0000ms, 1291ms total)
T3550 107:225 JLINK_ReadReg(FPS13)  returns 0x00000000 (0000ms, 1291ms total)
T3550 107:225 JLINK_ReadReg(FPS14)  returns 0x00000000 (0000ms, 1291ms total)
T3550 107:225 JLINK_ReadReg(FPS15)  returns 0x00000000 (0000ms, 1291ms total)
T3550 107:225 JLINK_ReadReg(FPS16)  returns 0x408E147B (0000ms, 1291ms total)
T3550 107:225 JLINK_ReadReg(FPS17)  returns 0x00000000 (0000ms, 1291ms total)
T3550 107:225 JLINK_ReadReg(FPS18)  returns 0x5C28F5C3 (0000ms, 1291ms total)
T3550 107:225 JLINK_ReadReg(FPS19)  returns 0x4011C28F (0000ms, 1291ms total)
T3550 107:226 JLINK_ReadReg(FPS20)  returns 0x00000000 (0000ms, 1292ms total)
T3550 107:226 JLINK_ReadReg(FPS21)  returns 0x406BC000 (0000ms, 1292ms total)
T3550 107:226 JLINK_ReadReg(FPS22)  returns 0x00000000 (0000ms, 1292ms total)
T3550 107:226 JLINK_ReadReg(FPS23)  returns 0x406BCBB3 (0000ms, 1292ms total)
T3550 107:226 JLINK_ReadReg(FPS24)  returns 0x00000000 (0000ms, 1292ms total)
T3550 107:226 JLINK_ReadReg(FPS25)  returns 0x00000000 (0000ms, 1292ms total)
T3550 107:226 JLINK_ReadReg(FPS26)  returns 0x00000000 (0000ms, 1292ms total)
T3550 107:226 JLINK_ReadReg(FPS27)  returns 0x00000000 (0000ms, 1292ms total)
T3550 107:226 JLINK_ReadReg(FPS28)  returns 0x00000000 (0000ms, 1292ms total)
T3550 107:226 JLINK_ReadReg(FPS29)  returns 0x00000000 (0000ms, 1292ms total)
T3550 107:226 JLINK_ReadReg(FPS30)  returns 0x00000000 (0000ms, 1292ms total)
T3550 107:226 JLINK_ReadReg(FPS31)  returns 0x00000000 (0000ms, 1292ms total)
T2A68 107:226 JLINK_ReadMemEx(0x200067C4, 0x0001 Bytes, ..., Flags = 0x02000000) -- CPU_ReadMem(64 bytes @ 0x200067C0) -- Updating C cache (64 bytes @ 0x200067C0) -- Read from C cache (1 bytes @ 0x200067C4) - Data: 00  returns 0x01 (0004ms, 1296ms total)
T2A68 107:230 JLINK_ReadMemEx(0x200067AC, 0x0002 Bytes, ..., Flags = 0x02000000) -- CPU_ReadMem(64 bytes @ 0x20006780) -- Updating C cache (64 bytes @ 0x20006780) -- Read from C cache (2 bytes @ 0x200067AC) - Data: 00 00  returns 0x02 (0004ms, 1300ms total)
T2A68 107:234 JLINK_ReadMemEx(0x200067A8, 0x0001 Bytes, ..., Flags = 0x02000000) -- Read from C cache (1 bytes @ 0x200067A8) - Data: 00  returns 0x01 (0000ms, 1300ms total)
